[0][DMA_TB] DMA TB log opened
[0][DMA_TB] INIT row=0 src=0x4f4e4d4c4b4a494847464544434241403f3e3d3c3b3a393837363534333231302f2e2d2c2b2a292827262524232221201f1e1d1c1b1a19181716151413121110 out_spm=0xbfbebdbcbbbab9b8b7b6b5b4b3b2b1b0afaeadacabaaa9a8a7a6a5a4a3a2a1a09f9e9d9c9b9a999897969594939291908f8e8d8c8b8a89888786858483828180
[0][DMA_TB] INIT row=1 src=0x504f4e4d4c4b4a494847464544434241403f3e3d3c3b3a393837363534333231302f2e2d2c2b2a292827262524232221201f1e1d1c1b1a191817161514131211 out_spm=0xc0bfbebdbcbbbab9b8b7b6b5b4b3b2b1b0afaeadacabaaa9a8a7a6a5a4a3a2a1a09f9e9d9c9b9a999897969594939291908f8e8d8c8b8a898887868584838281
[0][DMA_TB] INIT row=2 src=0x51504f4e4d4c4b4a494847464544434241403f3e3d3c3b3a393837363534333231302f2e2d2c2b2a292827262524232221201f1e1d1c1b1a1918171615141312 out_spm=0xc1c0bfbebdbcbbbab9b8b7b6b5b4b3b2b1b0afaeadacabaaa9a8a7a6a5a4a3a2a1a09f9e9d9c9b9a999897969594939291908f8e8d8c8b8a8988878685848382
[0][DMA_TB] INIT row=3 src=0x5251504f4e4d4c4b4a494847464544434241403f3e3d3c3b3a393837363534333231302f2e2d2c2b2a292827262524232221201f1e1d1c1b1a19181716151413 out_spm=0xc2c1c0bfbebdbcbbbab9b8b7b6b5b4b3b2b1b0afaeadacabaaa9a8a7a6a5a4a3a2a1a09f9e9d9c9b9a999897969594939291908f8e8d8c8b8a89888786858483
[0][DMA_TB] Preloaded external source rows and output rows
[75000][DMA_TB] Released reset
[75000][DMA_TB] Starting LOAD_ACT descriptor programming
[75000][DMA_TB] AXI-Lite WRITE addr=0x10001000 data=0x00012004
[115000][DMA_TB] AXI-Lite WRITE done addr=0x10001000
[115000][DMA_TB] AXI-Lite WRITE addr=0x10001004 data=0x20000000
[155000][DMA_TB] AXI-Lite WRITE done addr=0x10001004
[155000][DMA_TB] AXI-Lite WRITE addr=0x10001008 data=0x00000000
[195000][DMA_TB] AXI-Lite WRITE done addr=0x10001008
[195000][DMA_TB] AXI-Lite WRITE addr=0x1000100c data=0x00000001
[235000][DMA_TB] AXI-Lite WRITE done addr=0x1000100c
[235000][DMA_TB] AXI-Lite WRITE addr=0x10001018 data=0x00000001
[275000][DMA_TB] AXI-Lite WRITE done addr=0x10001018
[275000][DMA_TB] AXI-Lite READ addr=0x1000101c
[295000][DMA_TB] AXI READ req addr=0x20000000 len=0 size=6 burst=1 data=0x4f4e4d4c4b4a494847464544434241403f3e3d3c3b3a393837363534333231302f2e2d2c2b2a292827262524232221201f1e1d1c1b1a19181716151413121110
[305000][DMA_TB] AXI-Lite READ data addr=0x1000101c data=0x00000001
[305000][DMA_TB] AXI-Lite READ addr=0x1000101c
[315000][DMA_TB] DMA->SPM write type=0 buf=1 row=0 data=0x4f4e4d4c4b4a494847464544434241403f3e3d3c3b3a393837363534333231302f2e2d2c2b2a292827262524232221201f1e1d1c1b1a19181716151413121110 last=0
[315000][DMA_TB] CHECK PASS: LOAD_ACT row 0 matched expected source payload
[325000][DMA_TB] AXI READ req addr=0x20000040 len=0 size=6 burst=1 data=0x504f4e4d4c4b4a494847464544434241403f3e3d3c3b3a393837363534333231302f2e2d2c2b2a292827262524232221201f1e1d1c1b1a191817161514131211
[335000][DMA_TB] AXI-Lite READ data addr=0x1000101c data=0x00000001
[335000][DMA_TB] AXI-Lite READ addr=0x1000101c
[345000][DMA_TB] DMA->SPM write type=0 buf=1 row=1 data=0x504f4e4d4c4b4a494847464544434241403f3e3d3c3b3a393837363534333231302f2e2d2c2b2a292827262524232221201f1e1d1c1b1a191817161514131211 last=0
[345000][DMA_TB] CHECK PASS: LOAD_ACT row 1 matched expected source payload
[355000][DMA_TB] AXI READ req addr=0x20000080 len=0 size=6 burst=1 data=0x51504f4e4d4c4b4a494847464544434241403f3e3d3c3b3a393837363534333231302f2e2d2c2b2a292827262524232221201f1e1d1c1b1a1918171615141312
[365000][DMA_TB] AXI-Lite READ data addr=0x1000101c data=0x00000001
[365000][DMA_TB] AXI-Lite READ addr=0x1000101c
[375000][DMA_TB] DMA->SPM write type=0 buf=1 row=2 data=0x51504f4e4d4c4b4a494847464544434241403f3e3d3c3b3a393837363534333231302f2e2d2c2b2a292827262524232221201f1e1d1c1b1a1918171615141312 last=0
[375000][DMA_TB] CHECK PASS: LOAD_ACT row 2 matched expected source payload
[385000][DMA_TB] AXI READ req addr=0x200000c0 len=0 size=6 burst=1 data=0x5251504f4e4d4c4b4a494847464544434241403f3e3d3c3b3a393837363534333231302f2e2d2c2b2a292827262524232221201f1e1d1c1b1a19181716151413
[395000][DMA_TB] AXI-Lite READ data addr=0x1000101c data=0x00000001
[395000][DMA_TB] AXI-Lite READ addr=0x1000101c
[405000][DMA_TB] DMA->SPM write type=0 buf=1 row=3 data=0x5251504f4e4d4c4b4a494847464544434241403f3e3d3c3b3a393837363534333231302f2e2d2c2b2a292827262524232221201f1e1d1c1b1a19181716151413 last=1
[405000][DMA_TB] CHECK PASS: LOAD_ACT row 3 matched expected source payload
[425000][DMA_TB] AXI-Lite READ data addr=0x1000101c data=0x00000000
[425000][DMA_TB] AXI-Lite READ addr=0x1000101c
[455000][DMA_TB] AXI-Lite READ data addr=0x1000101c data=0x00000002
[455000][DMA_TB] LOAD_ACT completed with status=0x00000002
[455000][DMA_TB] CHECK PASS: LOAD_ACT moved all expected rows into act_spm
[455000][DMA_TB] Starting STORE_OUT descriptor programming
[455000][DMA_TB] AXI-Lite WRITE addr=0x10001000 data=0x00012002
[495000][DMA_TB] AXI-Lite WRITE done addr=0x10001000
[495000][DMA_TB] AXI-Lite WRITE addr=0x10001004 data=0x00000000
[535000][DMA_TB] AXI-Lite WRITE done addr=0x10001004
[535000][DMA_TB] AXI-Lite WRITE addr=0x10001008 data=0x20001000
[575000][DMA_TB] AXI-Lite WRITE done addr=0x10001008
[575000][DMA_TB] AXI-Lite WRITE addr=0x1000100c data=0x00000001
[615000][DMA_TB] AXI-Lite WRITE done addr=0x1000100c
[615000][DMA_TB] AXI-Lite WRITE addr=0x10001018 data=0x00000001
[655000][DMA_TB] AXI-Lite WRITE done addr=0x10001018
[655000][DMA_TB] AXI-Lite READ addr=0x1000101c
[675000][DMA_TB] DMA<-SPM read req buf=0 row=0 exp_data=0xbfbebdbcbbbab9b8b7b6b5b4b3b2b1b0afaeadacabaaa9a8a7a6a5a4a3a2a1a09f9e9d9c9b9a999897969594939291908f8e8d8c8b8a89888786858483828180
[675000][DMA_TB] CHECK PASS: STORE_OUT source row 0 prepared for AXI writeback
[685000][DMA_TB] AXI-Lite READ data addr=0x1000101c data=0x00000001
[685000][DMA_TB] AXI-Lite READ addr=0x1000101c
[695000][DMA_TB] AXI WRITE addr accepted addr=0x20001000 len=0 size=6 burst=1
[705000][DMA_TB] AXI WRITE data accepted data=0xbfbebdbcbbbab9b8b7b6b5b4b3b2b1b0afaeadacabaaa9a8a7a6a5a4a3a2a1a09f9e9d9c9b9a999897969594939291908f8e8d8c8b8a89888786858483828180 strb=0xffffffffffffffff last=1
[705000][DMA_TB] EXT MEM WRITE dst row=0 addr=0x20001000 data=0xbfbebdbcbbbab9b8b7b6b5b4b3b2b1b0afaeadacabaaa9a8a7a6a5a4a3a2a1a09f9e9d9c9b9a999897969594939291908f8e8d8c8b8a89888786858483828180
[715000][DMA_TB] AXI-Lite READ data addr=0x1000101c data=0x00000001
[715000][DMA_TB] AXI-Lite READ addr=0x1000101c
[725000][DMA_TB] DMA<-SPM read req buf=0 row=1 exp_data=0xc0bfbebdbcbbbab9b8b7b6b5b4b3b2b1b0afaeadacabaaa9a8a7a6a5a4a3a2a1a09f9e9d9c9b9a999897969594939291908f8e8d8c8b8a898887868584838281
[725000][DMA_TB] CHECK PASS: STORE_OUT source row 1 prepared for AXI writeback
[745000][DMA_TB] AXI WRITE addr accepted addr=0x20001040 len=0 size=6 burst=1
[745000][DMA_TB] AXI-Lite READ data addr=0x1000101c data=0x00000001
[745000][DMA_TB] AXI-Lite READ addr=0x1000101c
[755000][DMA_TB] AXI WRITE data accepted data=0xc0bfbebdbcbbbab9b8b7b6b5b4b3b2b1b0afaeadacabaaa9a8a7a6a5a4a3a2a1a09f9e9d9c9b9a999897969594939291908f8e8d8c8b8a898887868584838281 strb=0xffffffffffffffff last=1
[755000][DMA_TB] EXT MEM WRITE dst row=1 addr=0x20001040 data=0xc0bfbebdbcbbbab9b8b7b6b5b4b3b2b1b0afaeadacabaaa9a8a7a6a5a4a3a2a1a09f9e9d9c9b9a999897969594939291908f8e8d8c8b8a898887868584838281
[775000][DMA_TB] DMA<-SPM read req buf=0 row=2 exp_data=0xc1c0bfbebdbcbbbab9b8b7b6b5b4b3b2b1b0afaeadacabaaa9a8a7a6a5a4a3a2a1a09f9e9d9c9b9a999897969594939291908f8e8d8c8b8a8988878685848382
[775000][DMA_TB] CHECK PASS: STORE_OUT source row 2 prepared for AXI writeback
[775000][DMA_TB] AXI-Lite READ data addr=0x1000101c data=0x00000001
[775000][DMA_TB] AXI-Lite READ addr=0x1000101c
[795000][DMA_TB] AXI WRITE addr accepted addr=0x20001080 len=0 size=6 burst=1
[805000][DMA_TB] AXI WRITE data accepted data=0xc1c0bfbebdbcbbbab9b8b7b6b5b4b3b2b1b0afaeadacabaaa9a8a7a6a5a4a3a2a1a09f9e9d9c9b9a999897969594939291908f8e8d8c8b8a8988878685848382 strb=0xffffffffffffffff last=1
[805000][DMA_TB] EXT MEM WRITE dst row=2 addr=0x20001080 data=0xc1c0bfbebdbcbbbab9b8b7b6b5b4b3b2b1b0afaeadacabaaa9a8a7a6a5a4a3a2a1a09f9e9d9c9b9a999897969594939291908f8e8d8c8b8a8988878685848382
[805000][DMA_TB] AXI-Lite READ data addr=0x1000101c data=0x00000001
[805000][DMA_TB] AXI-Lite READ addr=0x1000101c
[825000][DMA_TB] DMA<-SPM read req buf=0 row=3 exp_data=0xc2c1c0bfbebdbcbbbab9b8b7b6b5b4b3b2b1b0afaeadacabaaa9a8a7a6a5a4a3a2a1a09f9e9d9c9b9a999897969594939291908f8e8d8c8b8a89888786858483
[825000][DMA_TB] CHECK PASS: STORE_OUT source row 3 prepared for AXI writeback
[835000][DMA_TB] AXI-Lite READ data addr=0x1000101c data=0x00000001
[835000][DMA_TB] AXI-Lite READ addr=0x1000101c
[845000][DMA_TB] AXI WRITE addr accepted addr=0x200010c0 len=0 size=6 burst=1
[855000][DMA_TB] AXI WRITE data accepted data=0xc2c1c0bfbebdbcbbbab9b8b7b6b5b4b3b2b1b0afaeadacabaaa9a8a7a6a5a4a3a2a1a09f9e9d9c9b9a999897969594939291908f8e8d8c8b8a89888786858483 strb=0xffffffffffffffff last=1
[855000][DMA_TB] EXT MEM WRITE dst row=3 addr=0x200010c0 data=0xc2c1c0bfbebdbcbbbab9b8b7b6b5b4b3b2b1b0afaeadacabaaa9a8a7a6a5a4a3a2a1a09f9e9d9c9b9a999897969594939291908f8e8d8c8b8a89888786858483
[865000][DMA_TB] AXI-Lite READ data addr=0x1000101c data=0x00000001
[865000][DMA_TB] AXI-Lite READ addr=0x1000101c
[895000][DMA_TB] AXI-Lite READ data addr=0x1000101c data=0x00000002
[895000][DMA_TB] STORE_OUT completed with status=0x00000002
[895000][DMA_TB] CHECK PASS: external dst row 0 matched out_spm payload 0xbfbebdbcbbbab9b8b7b6b5b4b3b2b1b0afaeadacabaaa9a8a7a6a5a4a3a2a1a09f9e9d9c9b9a999897969594939291908f8e8d8c8b8a89888786858483828180
[895000][DMA_TB] CHECK PASS: external dst row 1 matched out_spm payload 0xc0bfbebdbcbbbab9b8b7b6b5b4b3b2b1b0afaeadacabaaa9a8a7a6a5a4a3a2a1a09f9e9d9c9b9a999897969594939291908f8e8d8c8b8a898887868584838281
[895000][DMA_TB] CHECK PASS: external dst row 2 matched out_spm payload 0xc1c0bfbebdbcbbbab9b8b7b6b5b4b3b2b1b0afaeadacabaaa9a8a7a6a5a4a3a2a1a09f9e9d9c9b9a999897969594939291908f8e8d8c8b8a8988878685848382
[895000][DMA_TB] CHECK PASS: external dst row 3 matched out_spm payload 0xc2c1c0bfbebdbcbbbab9b8b7b6b5b4b3b2b1b0afaeadacabaaa9a8a7a6a5a4a3a2a1a09f9e9d9c9b9a999897969594939291908f8e8d8c8b8a89888786858483
[895000][DMA_TB] AXI-Lite READ addr=0x1000101c
[925000][DMA_TB] AXI-Lite READ data addr=0x1000101c data=0x00000002
[925000][DMA_TB] AXI-Lite READ addr=0x10001028
[955000][DMA_TB] AXI-Lite READ data addr=0x10001028 data=0x00000004
[955000][DMA_TB] AXI-Lite READ addr=0x1000102c
[985000][DMA_TB] AXI-Lite READ data addr=0x1000102c data=0x00000004
[985000][DMA_TB] DMA TB PASS: rd_beats=4 wr_beats=4 status=0x00000002
