[0][DMA_PACK_TB] DMA desc-pack TB log opened
[0][DMA_PACK_TB] INIT ext_src_mem[0] = 0x4f4e4d4c4b4a494847464544434241403f3e3d3c3b3a393837363534333231302f2e2d2c2b2a292827262524232221201f1e1d1c1b1a19181716151413121110
[0][DMA_PACK_TB] INIT ext_src_mem[1] = 0x504f4e4d4c4b4a494847464544434241403f3e3d3c3b3a393837363534333231302f2e2d2c2b2a292827262524232221201f1e1d1c1b1a191817161514131211
[0][DMA_PACK_TB] INIT ext_src_mem[2] = 0x51504f4e4d4c4b4a494847464544434241403f3e3d3c3b3a393837363534333231302f2e2d2c2b2a292827262524232221201f1e1d1c1b1a1918171615141312
[0][DMA_PACK_TB] INIT ext_src_mem[3] = 0x5251504f4e4d4c4b4a494847464544434241403f3e3d3c3b3a393837363534333231302f2e2d2c2b2a292827262524232221201f1e1d1c1b1a19181716151413
[0][DMA_PACK_TB] INIT out_spm_mem[2] = 0xbfbebdbcbbbab9b8b7b6b5b4b3b2b1b0afaeadacabaaa9a8a7a6a5a4a3a2a1a09f9e9d9c9b9a999897969594939291908f8e8d8c8b8a89888786858483828180
[0][DMA_PACK_TB] INIT out_spm_mem[3] = 0xcfcecdcccbcac9c8c7c6c5c4c3c2c1c0bfbebdbcbbbab9b8b7b6b5b4b3b2b1b0afaeadacabaaa9a8a7a6a5a4a3a2a1a09f9e9d9c9b9a99989796959493929190
[0][DMA_PACK_TB] INIT out_spm_mem[4] = 0xdfdedddcdbdad9d8d7d6d5d4d3d2d1d0cfcecdcccbcac9c8c7c6c5c4c3c2c1c0bfbebdbcbbbab9b8b7b6b5b4b3b2b1b0afaeadacabaaa9a8a7a6a5a4a3a2a1a0
[75000][DMA_PACK_TB] Released reset
[75000][DMA_PACK_TB] Starting compact LOAD_ACT descriptor pack test
[75000][DMA_PACK_TB] AXI-Lite WRITE addr=0x10001000 data=0x00012034
[115000][DMA_PACK_TB] AXI-Lite WRITE addr=0x10001004 data=0x20000000
[155000][DMA_PACK_TB] AXI-Lite WRITE addr=0x10001008 data=0x00000000
[195000][DMA_PACK_TB] AXI-Lite WRITE addr=0x1000100c data=0x00000002
[265000][DMA_PACK_TB] AXI-Lite READ addr=0x10001000 data=0x00012034
[295000][DMA_PACK_TB] AXI-Lite READ addr=0x10001004 data=0x20000000
[325000][DMA_PACK_TB] AXI-Lite READ addr=0x10001008 data=0x00000000
[355000][DMA_PACK_TB] AXI-Lite READ addr=0x1000100c data=0x00000002
[355000][DMA_PACK_TB] CHECK PASS: compact LOAD_ACT CSR words read back correctly
[355000][DMA_PACK_TB] CHECK PASS: DMA internal descriptor expansion matched compact CSR encoding
[355000][DMA_PACK_TB] AXI-Lite WRITE addr=0x10001018 data=0x00000001
[415000][DMA_PACK_TB] AXI READ req addr=0x20000000 data=0x4f4e4d4c4b4a494847464544434241403f3e3d3c3b3a393837363534333231302f2e2d2c2b2a292827262524232221201f1e1d1c1b1a19181716151413121110
[425000][DMA_PACK_TB] AXI-Lite READ addr=0x1000101c data=0x00000001
[435000][DMA_PACK_TB] DMA->SPM write type=0 buf=1 row=3 data=0x4f4e4d4c4b4a494847464544434241403f3e3d3c3b3a393837363534333231302f2e2d2c2b2a292827262524232221201f1e1d1c1b1a19181716151413121110 last=0
[435000][DMA_PACK_TB] CHECK PASS: packed LOAD_ACT row 0 executed with correct local row/address expansion
[445000][DMA_PACK_TB] AXI READ req addr=0x20000080 data=0x504f4e4d4c4b4a494847464544434241403f3e3d3c3b3a393837363534333231302f2e2d2c2b2a292827262524232221201f1e1d1c1b1a191817161514131211
[455000][DMA_PACK_TB] AXI-Lite READ addr=0x1000101c data=0x00000001
[465000][DMA_PACK_TB] DMA->SPM write type=0 buf=1 row=4 data=0x504f4e4d4c4b4a494847464544434241403f3e3d3c3b3a393837363534333231302f2e2d2c2b2a292827262524232221201f1e1d1c1b1a191817161514131211 last=0
[465000][DMA_PACK_TB] CHECK PASS: packed LOAD_ACT row 1 executed with correct local row/address expansion
[475000][DMA_PACK_TB] AXI READ req addr=0x20000100 data=0x51504f4e4d4c4b4a494847464544434241403f3e3d3c3b3a393837363534333231302f2e2d2c2b2a292827262524232221201f1e1d1c1b1a1918171615141312
[485000][DMA_PACK_TB] AXI-Lite READ addr=0x1000101c data=0x00000001
[495000][DMA_PACK_TB] DMA->SPM write type=0 buf=1 row=5 data=0x51504f4e4d4c4b4a494847464544434241403f3e3d3c3b3a393837363534333231302f2e2d2c2b2a292827262524232221201f1e1d1c1b1a1918171615141312 last=0
[495000][DMA_PACK_TB] CHECK PASS: packed LOAD_ACT row 2 executed with correct local row/address expansion
[505000][DMA_PACK_TB] AXI READ req addr=0x20000180 data=0x5251504f4e4d4c4b4a494847464544434241403f3e3d3c3b3a393837363534333231302f2e2d2c2b2a292827262524232221201f1e1d1c1b1a19181716151413
[515000][DMA_PACK_TB] AXI-Lite READ addr=0x1000101c data=0x00000001
[525000][DMA_PACK_TB] DMA->SPM write type=0 buf=1 row=6 data=0x5251504f4e4d4c4b4a494847464544434241403f3e3d3c3b3a393837363534333231302f2e2d2c2b2a292827262524232221201f1e1d1c1b1a19181716151413 last=1
[525000][DMA_PACK_TB] CHECK PASS: packed LOAD_ACT row 3 executed with correct local row/address expansion
[545000][DMA_PACK_TB] AXI-Lite READ addr=0x1000101c data=0x00000000
[575000][DMA_PACK_TB] AXI-Lite READ addr=0x1000101c data=0x00000002
[575000][DMA_PACK_TB] CHECK PASS: compact LOAD_ACT descriptor executed correctly
[575000][DMA_PACK_TB] Starting compact STORE_OUT descriptor pack test
[575000][DMA_PACK_TB] AXI-Lite WRITE addr=0x10001000 data=0x0000d022
[615000][DMA_PACK_TB] AXI-Lite WRITE addr=0x10001004 data=0x00000000
[655000][DMA_PACK_TB] AXI-Lite WRITE addr=0x10001008 data=0x20001000
[695000][DMA_PACK_TB] AXI-Lite WRITE addr=0x1000100c data=0x00000002
[765000][DMA_PACK_TB] AXI-Lite READ addr=0x10001000 data=0x0000d022
[795000][DMA_PACK_TB] AXI-Lite READ addr=0x10001008 data=0x20001000
[825000][DMA_PACK_TB] AXI-Lite READ addr=0x1000100c data=0x00000002
[825000][DMA_PACK_TB] CHECK PASS: compact STORE_OUT CSR words read back correctly
[825000][DMA_PACK_TB] CHECK PASS: compact STORE_OUT internal descriptor expansion matched expectation
[825000][DMA_PACK_TB] AXI-Lite WRITE addr=0x10001018 data=0x00000001
[885000][DMA_PACK_TB] DMA<-SPM read req row=2 data=0xbfbebdbcbbbab9b8b7b6b5b4b3b2b1b0afaeadacabaaa9a8a7a6a5a4a3a2a1a09f9e9d9c9b9a999897969594939291908f8e8d8c8b8a89888786858483828180 last=0
[895000][DMA_PACK_TB] AXI-Lite READ addr=0x1000101c data=0x00000001
[905000][DMA_PACK_TB] AXI WRITE addr accepted addr=0x20001000
[915000][DMA_PACK_TB] EXT MEM WRITE addr=0x20001000 data=0xbfbebdbcbbbab9b8b7b6b5b4b3b2b1b0afaeadacabaaa9a8a7a6a5a4a3a2a1a09f9e9d9c9b9a999897969594939291908f8e8d8c8b8a89888786858483828180 strb=0xffffffff
[915000][DMA_PACK_TB] AXI WRITE data accepted data=0xbfbebdbcbbbab9b8b7b6b5b4b3b2b1b0afaeadacabaaa9a8a7a6a5a4a3a2a1a09f9e9d9c9b9a999897969594939291908f8e8d8c8b8a89888786858483828180 strb=0xffffffff last=1
[925000][DMA_PACK_TB] AXI-Lite READ addr=0x1000101c data=0x00000001
[935000][DMA_PACK_TB] DMA<-SPM read req row=3 data=0xcfcecdcccbcac9c8c7c6c5c4c3c2c1c0bfbebdbcbbbab9b8b7b6b5b4b3b2b1b0afaeadacabaaa9a8a7a6a5a4a3a2a1a09f9e9d9c9b9a99989796959493929190 last=0
[955000][DMA_PACK_TB] AXI WRITE addr accepted addr=0x20001080
[955000][DMA_PACK_TB] AXI-Lite READ addr=0x1000101c data=0x00000001
[965000][DMA_PACK_TB] EXT MEM WRITE addr=0x20001080 data=0xcfcecdcccbcac9c8c7c6c5c4c3c2c1c0bfbebdbcbbbab9b8b7b6b5b4b3b2b1b0afaeadacabaaa9a8a7a6a5a4a3a2a1a09f9e9d9c9b9a99989796959493929190 strb=0xffffffff
[965000][DMA_PACK_TB] AXI WRITE data accepted data=0xcfcecdcccbcac9c8c7c6c5c4c3c2c1c0bfbebdbcbbbab9b8b7b6b5b4b3b2b1b0afaeadacabaaa9a8a7a6a5a4a3a2a1a09f9e9d9c9b9a99989796959493929190 strb=0xffffffff last=1
[985000][DMA_PACK_TB] DMA<-SPM read req row=4 data=0xdfdedddcdbdad9d8d7d6d5d4d3d2d1d0cfcecdcccbcac9c8c7c6c5c4c3c2c1c0bfbebdbcbbbab9b8b7b6b5b4b3b2b1b0afaeadacabaaa9a8a7a6a5a4a3a2a1a0 last=0
[985000][DMA_PACK_TB] AXI-Lite READ addr=0x1000101c data=0x00000001
[1005000][DMA_PACK_TB] AXI WRITE addr accepted addr=0x20001100
[1015000][DMA_PACK_TB] EXT MEM WRITE addr=0x20001100 data=0xdfdedddcdbdad9d8d7d6d5d4d3d2d1d0cfcecdcccbcac9c8c7c6c5c4c3c2c1c0bfbebdbcbbbab9b8b7b6b5b4b3b2b1b0afaeadacabaaa9a8a7a6a5a4a3a2a1a0 strb=0xffffffff
[1015000][DMA_PACK_TB] AXI WRITE data accepted data=0xdfdedddcdbdad9d8d7d6d5d4d3d2d1d0cfcecdcccbcac9c8c7c6c5c4c3c2c1c0bfbebdbcbbbab9b8b7b6b5b4b3b2b1b0afaeadacabaaa9a8a7a6a5a4a3a2a1a0 strb=0xffffffff last=1
[1015000][DMA_PACK_TB] AXI-Lite READ addr=0x1000101c data=0x00000001
[1045000][DMA_PACK_TB] AXI-Lite READ addr=0x1000101c data=0x00000000
[1075000][DMA_PACK_TB] AXI-Lite READ addr=0x1000101c data=0x00000002
[1075000][DMA_PACK_TB] CHECK PASS: compact STORE_OUT row 0 matched expected partial-byte writeback
[1075000][DMA_PACK_TB] CHECK PASS: compact STORE_OUT row 1 matched expected partial-byte writeback
[1075000][DMA_PACK_TB] CHECK PASS: compact STORE_OUT row 2 matched expected partial-byte writeback
[1075000][DMA_PACK_TB] DMA DESC PACK TB PASS: compact CSR writes were correctly expanded into descriptor fields and execution behavior
