[0][DATAFLOW_TB] u_core dataflow TB log opened
[0][DATAFLOW_TB] INIT act row0 = 0x303030303030303030303030303030301010101010101010101010101010101
[0][DATAFLOW_TB] INIT wgt row0 = 0x404040404040404040404040404040402020202020202020202020202020202
[75000][DATAFLOW_TB] Released reset
[75000][DATAFLOW_TB] Starting end-to-end dataflow case: LOAD_ACT -> LOAD_WGT -> NPU -> STORE_OUT
[75000][DATAFLOW_TB] Programming DMA desc op=0 buf=1 src=0x20000000 dst=0x00000000 row_len=64 row_cnt=1 spm_row_base=0
[75000][DATAFLOW_TB] DMA AXI-Lite WRITE addr=0x10001000 data=0x00006004
[115000][DATAFLOW_TB] DMA AXI-Lite WRITE addr=0x10001004 data=0x20000000
[155000][DATAFLOW_TB] DMA AXI-Lite WRITE addr=0x10001008 data=0x00000000
[195000][DATAFLOW_TB] DMA AXI-Lite WRITE addr=0x1000100c data=0x00000001
[235000][DATAFLOW_TB] DMA AXI-Lite WRITE addr=0x10001018 data=0x00000001
[295000][DATAFLOW_TB] EXT->DMA AXI READ addr=0x20000000 data=0x303030303030303030303030303030301010101010101010101010101010101
[305000][DATAFLOW_TB] DMA AXI-Lite READ addr=0x1000101c data=0x00000001
[315000][DATAFLOW_TB] DMA->SPM write type=0 buf=1 row=0 data=0x303030303030303030303030303030301010101010101010101010101010101 last=1
[335000][DATAFLOW_TB] DMA AXI-Lite READ addr=0x1000101c data=0x00000000
[365000][DATAFLOW_TB] DMA AXI-Lite READ addr=0x1000101c data=0x00000002
[365000][DATAFLOW_TB] CHECK PASS: LOAD_ACT done status=0x00000002 act_buf_ready=0x2
[365000][DATAFLOW_TB] Programming DMA desc op=1 buf=0 src=0x20000100 dst=0x00000000 row_len=64 row_cnt=1 spm_row_base=0
[365000][DATAFLOW_TB] DMA AXI-Lite WRITE addr=0x10001000 data=0x00006001
[405000][DATAFLOW_TB] DMA AXI-Lite WRITE addr=0x10001004 data=0x20000100
[445000][DATAFLOW_TB] DMA AXI-Lite WRITE addr=0x10001008 data=0x00000000
[485000][DATAFLOW_TB] DMA AXI-Lite WRITE addr=0x1000100c data=0x00000001
[525000][DATAFLOW_TB] DMA AXI-Lite WRITE addr=0x10001018 data=0x00000001
[585000][DATAFLOW_TB] EXT->DMA AXI READ addr=0x20000100 data=0x404040404040404040404040404040402020202020202020202020202020202
[595000][DATAFLOW_TB] DMA AXI-Lite READ addr=0x1000101c data=0x00000001
[605000][DATAFLOW_TB] DMA->SPM write type=1 buf=0 row=0 data=0x404040404040404040404040404040402020202020202020202020202020202 last=1
[625000][DATAFLOW_TB] DMA AXI-Lite READ addr=0x1000101c data=0x00000000
[655000][DATAFLOW_TB] DMA AXI-Lite READ addr=0x1000101c data=0x00000002
[655000][DATAFLOW_TB] CHECK PASS: LOAD_WGT done status=0x00000002 wgt_buf_ready=0x1
[655000][DATAFLOW_TB] Programming NPU cfg act_buf=1 wgt_buf=0 out_buf=0 ktile=2
[655000][DATAFLOW_TB] NPU AXI-Lite WRITE addr=0x10000000 data=0x00000000
[695000][DATAFLOW_TB] NPU AXI-Lite WRITE addr=0x10000004 data=0x00000001
[735000][DATAFLOW_TB] NPU AXI-Lite WRITE addr=0x10000008 data=0x00000002
[775000][DATAFLOW_TB] NPU AXI-Lite WRITE addr=0x1000000c data=0x00000000
[815000][DATAFLOW_TB] NPU AXI-Lite WRITE addr=0x10000010 data=0x00000001
[865000][DATAFLOW_TB] SPM->NPU vec handshake #0 act_buf=1 wgt_buf=0 k_idx=0 act_vec=0x1010101010101010101010101010101 wgt_vec=0x2020202020202020202020202020202
[865000][DATAFLOW_TB] CHECK PASS: NPU consumed expected vectors for k_idx=0
[875000][DATAFLOW_TB] SPM->NPU vec handshake #1 act_buf=1 wgt_buf=0 k_idx=1 act_vec=0x3030303030303030303030303030303 wgt_vec=0x4040404040404040404040404040404
[875000][DATAFLOW_TB] CHECK PASS: NPU consumed expected vectors for k_idx=1
[895000][DATAFLOW_TB] NPU->SPM row write row=0 data=0xe000e000e000e000e000e000e000e000e000e000e000e000e000e000e000e mask=0xffff last=0
[895000][DATAFLOW_TB] CHECK PASS: output row 0 matched expected value 14
[905000][DATAFLOW_TB] NPU->SPM row write row=1 data=0xe000e000e000e000e000e000e000e000e000e000e000e000e000e000e000e mask=0xffff last=0
[905000][DATAFLOW_TB] CHECK PASS: output row 1 matched expected value 14
[915000][DATAFLOW_TB] NPU->SPM row write row=2 data=0xe000e000e000e000e000e000e000e000e000e000e000e000e000e000e000e mask=0xffff last=0
[915000][DATAFLOW_TB] CHECK PASS: output row 2 matched expected value 14
[925000][DATAFLOW_TB] NPU->SPM row write row=3 data=0xe000e000e000e000e000e000e000e000e000e000e000e000e000e000e000e mask=0xffff last=0
[925000][DATAFLOW_TB] CHECK PASS: output row 3 matched expected value 14
[935000][DATAFLOW_TB] NPU->SPM row write row=4 data=0xe000e000e000e000e000e000e000e000e000e000e000e000e000e000e000e mask=0xffff last=0
[935000][DATAFLOW_TB] CHECK PASS: output row 4 matched expected value 14
[945000][DATAFLOW_TB] NPU->SPM row write row=5 data=0xe000e000e000e000e000e000e000e000e000e000e000e000e000e000e000e mask=0xffff last=0
[945000][DATAFLOW_TB] CHECK PASS: output row 5 matched expected value 14
[955000][DATAFLOW_TB] NPU->SPM row write row=6 data=0xe000e000e000e000e000e000e000e000e000e000e000e000e000e000e000e mask=0xffff last=0
[955000][DATAFLOW_TB] CHECK PASS: output row 6 matched expected value 14
[965000][DATAFLOW_TB] NPU->SPM row write row=7 data=0xe000e000e000e000e000e000e000e000e000e000e000e000e000e000e000e mask=0xffff last=0
[965000][DATAFLOW_TB] CHECK PASS: output row 7 matched expected value 14
[975000][DATAFLOW_TB] NPU->SPM row write row=8 data=0xe000e000e000e000e000e000e000e000e000e000e000e000e000e000e000e mask=0xffff last=0
[975000][DATAFLOW_TB] CHECK PASS: output row 8 matched expected value 14
[985000][DATAFLOW_TB] NPU->SPM row write row=9 data=0xe000e000e000e000e000e000e000e000e000e000e000e000e000e000e000e mask=0xffff last=0
[985000][DATAFLOW_TB] CHECK PASS: output row 9 matched expected value 14
[995000][DATAFLOW_TB] NPU->SPM row write row=10 data=0xe000e000e000e000e000e000e000e000e000e000e000e000e000e000e000e mask=0xffff last=0
[995000][DATAFLOW_TB] CHECK PASS: output row 10 matched expected value 14
[1005000][DATAFLOW_TB] NPU->SPM row write row=11 data=0xe000e000e000e000e000e000e000e000e000e000e000e000e000e000e000e mask=0xffff last=0
[1005000][DATAFLOW_TB] CHECK PASS: output row 11 matched expected value 14
[1015000][DATAFLOW_TB] NPU->SPM row write row=12 data=0xe000e000e000e000e000e000e000e000e000e000e000e000e000e000e000e mask=0xffff last=0
[1015000][DATAFLOW_TB] CHECK PASS: output row 12 matched expected value 14
[1025000][DATAFLOW_TB] NPU->SPM row write row=13 data=0xe000e000e000e000e000e000e000e000e000e000e000e000e000e000e000e mask=0xffff last=0
[1025000][DATAFLOW_TB] CHECK PASS: output row 13 matched expected value 14
[1035000][DATAFLOW_TB] NPU->SPM row write row=14 data=0xe000e000e000e000e000e000e000e000e000e000e000e000e000e000e000e mask=0xffff last=0
[1035000][DATAFLOW_TB] CHECK PASS: output row 14 matched expected value 14
[1045000][DATAFLOW_TB] NPU->SPM row write row=15 data=0xe000e000e000e000e000e000e000e000e000e000e000e000e000e000e000e mask=0xffff last=1
[1045000][DATAFLOW_TB] CHECK PASS: output row 15 matched expected value 14
[1055000][DATAFLOW_TB] Observed npu_done after DMA-fed computation
[1085000][DATAFLOW_TB] NPU AXI-Lite READ addr=0x10000014 data=0x00000004
[1085000][DATAFLOW_TB] CHECK PASS: NPU_STATUS=0x00000004
[1115000][DATAFLOW_TB] NPU AXI-Lite READ addr=0x1000001c data=0x00000003
[1115000][DATAFLOW_TB] CHECK PASS: NPU busy cycles=3
[1115000][DATAFLOW_TB] Programming DMA desc op=2 buf=0 src=0x00000000 dst=0x20001000 row_len=64 row_cnt=8 spm_row_base=0
[1115000][DATAFLOW_TB] DMA AXI-Lite WRITE addr=0x10001000 data=0x00022002
[1155000][DATAFLOW_TB] DMA AXI-Lite WRITE addr=0x10001004 data=0x00000000
[1195000][DATAFLOW_TB] DMA AXI-Lite WRITE addr=0x10001008 data=0x20001000
[1235000][DATAFLOW_TB] DMA AXI-Lite WRITE addr=0x1000100c data=0x00000001
[1275000][DATAFLOW_TB] DMA AXI-Lite WRITE addr=0x10001018 data=0x00000001
[1345000][DATAFLOW_TB] DMA AXI-Lite READ addr=0x1000101c data=0x00000001
[1355000][DATAFLOW_TB] DMA->EXT AXI WRITE addr accepted addr=0x20001000
[1365000][DATAFLOW_TB] DMA->EXT AXI WRITE data=0xe000e000e000e000e000e000e000e000e000e000e000e000e000e000e000e000e000e000e000e000e000e000e000e000e000e000e000e000e000e000e000e strb=0xffffffffffffffff last=1
[1375000][DATAFLOW_TB] DMA AXI-Lite READ addr=0x1000101c data=0x00000001
[1405000][DATAFLOW_TB] DMA->EXT AXI WRITE addr accepted addr=0x20001040
[1405000][DATAFLOW_TB] DMA AXI-Lite READ addr=0x1000101c data=0x00000001
[1415000][DATAFLOW_TB] DMA->EXT AXI WRITE data=0xe000e000e000e000e000e000e000e000e000e000e000e000e000e000e000e000e000e000e000e000e000e000e000e000e000e000e000e000e000e000e000e strb=0xffffffffffffffff last=1
[1435000][DATAFLOW_TB] DMA AXI-Lite READ addr=0x1000101c data=0x00000001
[1455000][DATAFLOW_TB] DMA->EXT AXI WRITE addr accepted addr=0x20001080
[1465000][DATAFLOW_TB] DMA->EXT AXI WRITE data=0xe000e000e000e000e000e000e000e000e000e000e000e000e000e000e000e000e000e000e000e000e000e000e000e000e000e000e000e000e000e000e000e strb=0xffffffffffffffff last=1
[1465000][DATAFLOW_TB] DMA AXI-Lite READ addr=0x1000101c data=0x00000001
[1495000][DATAFLOW_TB] DMA AXI-Lite READ addr=0x1000101c data=0x00000001
[1505000][DATAFLOW_TB] DMA->EXT AXI WRITE addr accepted addr=0x200010c0
[1515000][DATAFLOW_TB] DMA->EXT AXI WRITE data=0xe000e000e000e000e000e000e000e000e000e000e000e000e000e000e000e000e000e000e000e000e000e000e000e000e000e000e000e000e000e000e000e strb=0xffffffffffffffff last=1
[1525000][DATAFLOW_TB] DMA AXI-Lite READ addr=0x1000101c data=0x00000001
[1555000][DATAFLOW_TB] DMA->EXT AXI WRITE addr accepted addr=0x20001100
[1555000][DATAFLOW_TB] DMA AXI-Lite READ addr=0x1000101c data=0x00000001
[1565000][DATAFLOW_TB] DMA->EXT AXI WRITE data=0xe000e000e000e000e000e000e000e000e000e000e000e000e000e000e000e000e000e000e000e000e000e000e000e000e000e000e000e000e000e000e000e strb=0xffffffffffffffff last=1
[1585000][DATAFLOW_TB] DMA AXI-Lite READ addr=0x1000101c data=0x00000001
[1605000][DATAFLOW_TB] DMA->EXT AXI WRITE addr accepted addr=0x20001140
[1615000][DATAFLOW_TB] DMA->EXT AXI WRITE data=0xe000e000e000e000e000e000e000e000e000e000e000e000e000e000e000e000e000e000e000e000e000e000e000e000e000e000e000e000e000e000e000e strb=0xffffffffffffffff last=1
[1615000][DATAFLOW_TB] DMA AXI-Lite READ addr=0x1000101c data=0x00000001
[1645000][DATAFLOW_TB] DMA AXI-Lite READ addr=0x1000101c data=0x00000001
[1655000][DATAFLOW_TB] DMA->EXT AXI WRITE addr accepted addr=0x20001180
[1665000][DATAFLOW_TB] DMA->EXT AXI WRITE data=0xe000e000e000e000e000e000e000e000e000e000e000e000e000e000e000e000e000e000e000e000e000e000e000e000e000e000e000e000e000e000e000e strb=0xffffffffffffffff last=1
[1675000][DATAFLOW_TB] DMA AXI-Lite READ addr=0x1000101c data=0x00000001
[1705000][DATAFLOW_TB] DMA->EXT AXI WRITE addr accepted addr=0x200011c0
[1705000][DATAFLOW_TB] DMA AXI-Lite READ addr=0x1000101c data=0x00000001
[1715000][DATAFLOW_TB] DMA->EXT AXI WRITE data=0xe000e000e000e000e000e000e000e000e000e000e000e000e000e000e000e000e000e000e000e000e000e000e000e000e000e000e000e000e000e000e000e strb=0xffffffffffffffff last=1
[1735000][DATAFLOW_TB] DMA AXI-Lite READ addr=0x1000101c data=0x00000001
[1765000][DATAFLOW_TB] DMA AXI-Lite READ addr=0x1000101c data=0x00000002
[1765000][DATAFLOW_TB] CHECK PASS: STORE_OUT done status=0x00000002
[1765000][DATAFLOW_TB] CHECK PASS: external output row 0 matched expected packed result 0xe000e000e000e000e000e000e000e000e000e000e000e000e000e000e000e000e000e000e000e000e000e000e000e000e000e000e000e000e000e000e000e
[1765000][DATAFLOW_TB] CHECK PASS: external output row 1 matched expected packed result 0xe000e000e000e000e000e000e000e000e000e000e000e000e000e000e000e000e000e000e000e000e000e000e000e000e000e000e000e000e000e000e000e
[1765000][DATAFLOW_TB] CHECK PASS: external output row 2 matched expected packed result 0xe000e000e000e000e000e000e000e000e000e000e000e000e000e000e000e000e000e000e000e000e000e000e000e000e000e000e000e000e000e000e000e
[1765000][DATAFLOW_TB] CHECK PASS: external output row 3 matched expected packed result 0xe000e000e000e000e000e000e000e000e000e000e000e000e000e000e000e000e000e000e000e000e000e000e000e000e000e000e000e000e000e000e000e
[1765000][DATAFLOW_TB] CHECK PASS: external output row 4 matched expected packed result 0xe000e000e000e000e000e000e000e000e000e000e000e000e000e000e000e000e000e000e000e000e000e000e000e000e000e000e000e000e000e000e000e
[1765000][DATAFLOW_TB] CHECK PASS: external output row 5 matched expected packed result 0xe000e000e000e000e000e000e000e000e000e000e000e000e000e000e000e000e000e000e000e000e000e000e000e000e000e000e000e000e000e000e000e
[1765000][DATAFLOW_TB] CHECK PASS: external output row 6 matched expected packed result 0xe000e000e000e000e000e000e000e000e000e000e000e000e000e000e000e000e000e000e000e000e000e000e000e000e000e000e000e000e000e000e000e
[1765000][DATAFLOW_TB] CHECK PASS: external output row 7 matched expected packed result 0xe000e000e000e000e000e000e000e000e000e000e000e000e000e000e000e000e000e000e000e000e000e000e000e000e000e000e000e000e000e000e000e
[1795000][DATAFLOW_TB] DMA AXI-Lite READ addr=0x10001028 data=0x00000002
[1825000][DATAFLOW_TB] DMA AXI-Lite READ addr=0x1000102c data=0x00000008
[1825000][DATAFLOW_TB] CHECK PASS: DMA beat counts rd=2 wr=8
[1825000][DATAFLOW_TB] U_CORE DATAFLOW TB PASS: DMA->SPM->NPU->SPM->DMA full chain passed
